! Sonnet Data File
! From: em Version : 18.56
! From Project: testfile
! Data is De-embedded 
! Data File Written: 07/22/2026 17:35:59
! ->  Created by pysonnet 0.0.4
!< HDATE 07/22/2026 17:35:23
!< MDATE 07/22/2026 17:35:23
# GHZ S RI R 50.00000
1.000000000000000 -0.134959602359 -0.134405007473 0.6980406465269 -0.690254953289 0.6980406465267 -0.690254953289 -0.132888606460 -0.136452944003
1.050000000000000 -0.144830478847 -0.133536777548 0.6704217124193 -0.715342753071 0.6704217124193 -0.715342753071 -0.142641388571 -0.135874355178
1.100000000000000 -0.154525857045 -0.131862460567 0.6420020047981 -0.739295785890 0.6420020047981 -0.739295785890 -0.152227159308 -0.134509571919
1.150000000000000 -0.163981626161 -0.129401799582 0.6128302801471 -0.762102414679 0.6128302801471 -0.762102414679 -0.161584036431 -0.132379071435
1.200000000000000 -0.173136461044 -0.126179399288 0.5829536728023 -0.783753412666 0.5829536728023 -0.783753412666 -0.170653005876 -0.129507773989
1.250000000000000 -0.181932027551 -0.122224276531 0.5524174549882 -0.804241654950 0.5524174549882 -0.804241654950 -0.179378050333 -0.125924642633
1.300000000000000 -0.190313140931 -0.117569462984 0.5212648686739 -0.823561765550 0.5212648686739 -0.823561765550 -0.187706253173 -0.121662336855
1.350000000000000 -0.198227893572 -0.112251650616 0.4895370302241 -0.841709742314 0.4895370302241 -0.841709742314 -0.195587889841 -0.116756907759
1.400000000000000 -0.205627762357 -0.106310871359 0.4572729040907 -0.858682577369 0.4572729040907 -0.858682577369 -0.202976513576 -0.111247523927
1.450000000000000 -0.212467702042 -0.099790203840 0.4245093393260 -0.874477886497 0.4245093393260 -0.874477886497 -0.209829038826 -0.105176219165
1.500000000000000 -0.218706228723 -0.092735501605 0.3912811616768 -0.889093557135 0.3912811616768 -0.889093557135 -0.216105823671 -0.098587655435
1.550000000000000 -0.224305496167 -0.085195138510 0.3576213139038 -0.902527421851 0.3576213139038 -0.902527421851 -0.221770751419 -0.091528896052
1.600000000000000 -0.229231367082 -0.077219767852 0.3235610373490 -0.914776962015 0.3235610373490 -0.914776962015 -0.226791311144 -0.084049185628
1.650000000000000 -0.233453481025 -0.068862092426 0.2891300883790 -0.925839044823 0.2891300883790 -0.925839044823 -0.231138676845 -0.076199734278
1.700000000000000 -0.236945320397 -0.060176643002 0.2543569839926 -0.935709695820 0.2543569839926 -0.935709695820 -0.234787785004 -0.068033504187
1.750000000000000 -0.239684275814 -0.051219562822 0.2192692714975 -0.944383908339 0.2192692714975 -0.944383908339 -0.237717410516 -0.059604997009
1.800000000000000 -0.241651711880 -0.042048395757 0.1838938176846 -0.951855490872 0.1838938176846 -0.951855490872 -0.239910241061 -0.050970040658
1.850000000000000 -0.242833034172 -0.032721875648 0.1482571133397 -0.958116953123 0.1482571133397 -0.958116953123 -0.241352950048 -0.042185574042
1.900000000000000 -0.243217757883 -0.023299714286 0.1123855892156 -0.963159431348 0.1123855892156 -0.963159431348 -0.242036268204 -0.033309428115
1.950000000000000 -0.242799578219 -0.013842385361 0.0763059397651 -0.966972653521 0.0763059397651 -0.966972653521 -0.241955053709 -0.024400101528
2.000000000000000 -0.241576442172 -4.410901665e-3 0.0400454510010 -0.969544944807 0.0400454510010 -0.969544944807 -0.241108360495 -0.015516528930
2.050000000000000 -0.239550620818 0.0049334172050 0.0036323288242 -0.970863273762 0.0036323288242 -0.970863273762 -0.239499503995 -6.717839922e-3
2.100000000000000 -0.236728780743 0.0141291893287 -0.032903975941 -0.970913339611 -0.032903975941 -0.970913339611 -0.237136123152 0.0019368934350
2.150000000000000 -0.233122052647 0.0231152296981 -0.069532449733 -0.969679700803 -0.069532449733 -0.969679700803 -0.234030237031 0.0103889225940
2.200000000000000 -0.228746094603 0.0318308265343 -0.106220209801 -0.967145944857 -0.106220209801 -0.967145944857 -0.230198293839 0.0185801038807
2.250000000000000 -0.223621146860 0.0402160366982 -0.142932213495 -0.963294899230 -0.142932213495 -0.963294899230 -0.225661209606 0.0264531969030
2.300000000000000 -0.217772074554 0.0482120017641 -0.179630987941 -0.958108882601 -0.179630987941 -0.958108882601 -0.220444393261 0.0339521812998
2.350000000000000 -0.211228394156 0.0557612857775 -0.216276384957 -0.951569995460 -0.216276384957 -0.951569995460 -0.214577754320 0.0410225926351
2.400000000000000 -0.204024279045 0.0628082350529 -0.252825366309 -0.943660448395 -0.252825366309 -0.943660448395 -0.208095688974 0.0476118776315
2.450000000000000 -0.196198539237 0.0692993595933 -0.289231824502 -0.934362925778 -0.289231824502 -0.934362925778 -0.201037039984 0.0536697682135
2.500000000000000 -0.187794570045 0.0751837348341 -0.325446444412 -0.923660981813 -0.325446444412 -0.923660981813 -0.193445025577 0.0591486729936
2.550000000000000 -0.178860264320 0.0804134214448 -0.361416610965 -0.911539465106 -0.361416610965 -0.911539465106 -0.185367132378 0.0640040839138
2.600000000000000 -0.169447882995 0.0849438998802 -0.397086367907 -0.897984966983 -0.397086367907 -0.897984966983 -0.176854967500 0.0681949947513
2.650000000000000 -0.159613878844 0.0887345152825 -0.432396432346 -0.882986287901 -0.432396432346 -0.882986287901 -0.167964065126 0.0716843271591
2.700000000000000 -0.149418668853 0.0917489272336 -0.467284269214 -0.866534915290 -0.467284269214 -0.866534915290 -0.158753643347 0.0744393588487
2.750000000000000 -0.138926351209 0.0939555577699 -0.501684229069 -0.848625505292 -0.501684229069 -0.848625505292 -0.149286307689 0.0764321474947
2.800000000000000 -0.128204363818 0.0953280300548 -0.535527751698 -0.829256359969 -0.535527751698 -0.829256359969 -0.139627698610 0.0776399429719
2.850000000000000 -0.117323082371 0.0958455891957 -0.568743636873 -0.808429890817 -0.568743636873 -0.808429890817 -0.129846081346 0.0780455796869
2.900000000000000 -0.106355357295 0.0954934959485 -0.601258382227 -0.786153058824 -0.601258382227 -0.786153058824 -0.120011877807 0.0776378400788
2.950000000000000 -0.095375990465 0.0942633835372 -0.632996586728 -0.762437780930 -0.632996586728 -0.762437780930 -0.110197141666 0.0764117799120
3.000000000000000 -0.084461154119 0.0921535674119 -0.663881416538 -0.737301292691 -0.663881416538 -0.737301292691 -0.100474979418 0.0743690056022
3.050000000000000 -0.073687756585 0.0891692982775 -0.693835128380 -0.710766456804 -0.693835128380 -0.710766456804 -0.090918922044 0.0715178944949
3.100000000000000 -0.063132760539 0.0853229481565 -0.722779643523 -0.682862008329 -0.722779643523 -0.682862008329 -0.081602253392 0.0678737482548
3.150000000000000 -0.052872462270 0.0806341211810 -0.750637164038 -0.653622727397 -0.750637164038 -0.653622727397 -0.072597303517 0.0634588717862
3.200000000000000 -0.042981741355 0.0751296808118 -0.777330821003 -0.623089532243 -0.777330821003 -0.623089532243 -0.063974716571 0.0583025698828
3.250000000000000 -0.033533292371 0.0688436877240 -0.802785343153 -0.591309486191 -0.802785343153 -0.591309486191 -0.055802704460 0.0524410565048
3.300000000000000 -0.024596850882 0.0618172430545 -0.826927732918 -0.558335714994 -0.826927732918 -0.558335714994 -0.048146298607 0.0459172719132
3.350000000000000 -0.016238427710 0.0540982353044 -0.849687936253 -0.524227232046 -0.849687936253 -0.524227232046 -0.041066613145 0.0387806065604
3.400000000000000 -8.519565470e-3 0.0457409902932 -0.870999491914 -0.489048672145 -0.870999491914 -0.489048672145 -0.034620133274 0.0310865316059
3.450000000000000 -1.496631824e-3 0.0368058265940 -0.890800145901 -0.452869936537 -0.890800145901 -0.452869936537 -0.028858042629 0.0228961389271
3.500000000000000 0.0047798365122 0.0273585211751 -0.909032417200 -0.415765754567 -0.909032417200 -0.415765754567 -0.023825603096 0.0142755956893
3.550000000000000 0.0102657257536 0.0174696924128 -0.925644101855 -0.377815169655 -0.925644101855 -0.377815169655 -0.019561599645 0.0052955208693
3.600000000000000 0.0149238607723 0.0072141090685 -0.940588703553 -0.339100959026 -0.940588703553 -0.339100959026 -0.016097861763 -3.969707449e-3
3.650000000000000 0.0187244349158 -3.330060679e-3 -0.953825781445 -0.299709000980 -0.953825781445 -0.299709000980 -0.013458870247 -0.013442700262
3.700000000000000 0.0216453455587 -0.014082049770 -0.965321207334 -0.259727601421 -0.965321207334 -0.259727601421 -0.011661457373 -0.023043850678
3.750000000000000 0.0236724285422 -0.024959328819 -0.975047326417 -0.219246793756 -0.975047326417 -0.219246793756 -0.010714606101 -0.032692158621
3.800000000000000 0.0247995889142 -0.035878461609 -0.982983019452 -0.178357629198 -0.982983019452 -0.178357629198 -0.010619350579 -0.042306070580
3.850000000000000 0.0250288269356 -0.046755965251 -0.989113666233 -0.137151472392 -0.989113666233 -0.137151472392 -0.011368778337 -0.051804320562
3.900000000000000 0.0243701610656 -0.057509160158 -0.993431013013 -0.095719317569 -0.993431013013 -0.095719317569 -0.012948131972 -0.061106757988
3.950000000000000 0.0228414520430 -0.068056995781 -0.995932949024 -0.054151139680 -0.995932949024 -0.054151139680 -0.015335005875 -0.070135149090
4.000000000000000 0.0204681343477 -0.078320839204 -0.996623199502 -0.012535293715 -0.996623199502 -0.012535293715 -0.018499631433 -0.078813939611
4.050000000000000 0.0172828631803 -0.088225215277 -0.995510944593 0.0290420261817 -0.995510944593 0.0290420261817 -0.022405242487 -0.087070968188
4.100000000000001 0.0133250865764 -0.097698488766 -0.992610375139 0.0704972580724 -0.992610375139 0.0704972580724 -0.027008511390 -0.094838121628
4.150000000000000 0.0086405533274 -0.106673481060 -0.987940197501 0.1117498663956 -0.987940197501 0.1117498663956 -0.032260045144 -0.102051925281
4.200000000000000 0.0032807680118 -0.115088016045 -0.981523100421 0.1527226534959 -0.981523100421 0.1527226534959 -0.038104930530 -0.108654063809
4.250000000000000 -2.697595365e-3 -0.122885391890 -0.973385197249 0.1933419852588 -0.973385197249 0.1933419852588 -0.044483317062 -0.114591829676
4.300000000000001 -9.233309831e-3 -0.130014777518 -0.963555456880 0.2335379297590 -0.963555456880 0.2335379297590 -0.051331026906 -0.119818498659
4.350000000000001 -0.016261231280 -0.136431534377 -0.952065136382 0.2732443098640 -0.952065136382 0.2732443098640 -0.058580181520 -0.124293633457
4.400000000000000 -0.023712943843 -0.142097465795 -0.938947227614 0.3123986725854 -0.938947227614 0.3123986725854 -0.066159835724 -0.127983318017
4.450000000000000 -0.031517406084 -0.146980997549 -0.924235929280 0.3509421796116 -0.924235929280 0.3509421796116 -0.073996611087 -0.130860326491
4.500000000000000 -0.039601590609 -0.151057294355 -0.907966154728 0.3888194248479 -0.907966154728 0.3888194248479 -0.082015321828 -0.132904231685
4.550000000000001 -0.047891111129 -0.154308317728 -0.890173084641 0.4259781859419 -0.890173084641 0.4259781859419 -0.090139587880 -0.134101458538
4.600000000000001 -0.056310832442 -0.156722831108 -0.870891772474 0.4623691176755 -0.870891772474 0.4623691176755 -0.098292431241 -0.134445288483
4.650000000000000 -0.064785460300 -0.158296358236 -0.850156809199 0.4979453957835 -0.850156809199 0.4979453957835 -0.106396853147 -0.133935820595
4.700000000000000 -0.073240109474 -0.159031100607 -0.828002052650 0.5326623202356 -0.828002052650 0.5326623202356 -0.114376390982 -0.132579895154
4.750000000000000 -0.081600849614 -0.158935819404 -0.804460425508 0.5664768873206 -0.804460425508 0.5664768873206 -0.122155655086 -0.130390984747
4.800000000000001 -0.089795229591 -0.158025686615 -0.779563784830 0.5993473400370 -0.779563784830 0.5993473400370 -0.129660846646 -0.127389057293
4.850000000000001 -0.097752781927 -0.156322109209 -0.753342864891 0.6312327063532 -0.753342864891 0.6312327063532 -0.136820258754 -0.123600414448
4.900000000000000 -0.105405509608 -0.153852529219 -0.725827294109 0.6620923348781 -0.725827294109 0.6620923348781 -0.143564763345 -0.119057507758
4.950000000000000 -0.112688358018 -0.150650201455 -0.697045685824 0.6918854374187 -0.697045685824 0.6918854374187 -0.149828287125 -0.113798733771
5.000000000000000 -0.119539674930 -0.146753949370 -0.667025801791 0.7205706477986 -0.667025801791 0.7205706477986 -0.155548279710 -0.107868208037
5.050000000000001 -0.125901661444 -0.142207898408 -0.635794786325 0.7481056061920 -0.635794786325 0.7481056061920 -0.160666177106 -0.101315516674
5.100000000000001 -0.131720816387 -0.137061184901 -0.603379468108 0.7744465780917 -0.603379468108 0.7744465780917 -0.165127863206 -0.094195442905
5.150000000000000 -0.136948376131 -0.131367637493 -0.569806725734 0.7995481168676 -0.569806725734 0.7995481168676 -0.168884131311 -0.086567664799
5.200000000000000 -0.141540750893 -0.125185426989 -0.535103912044 0.8233627786684 -0.535103912044 0.8233627786684 -0.171891146720 -0.078496419343
5.250000000000000 -0.145459957463 -0.118576679628 -0.499299331230 0.8458408981497 -0.499299331230 0.8458408981497 -0.174110910206 -0.070050127083
5.300000000000001 -0.148674046973 -0.111607048138 -0.462422761510 0.8669304331325 -0.462422761510 0.8669304331325 -0.175511720718 -0.061300970834
5.350000000000001 -0.151157524714 -0.104345234427 -0.424506014938 0.8865768857768 -0.424506014938 0.8865768857768 -0.176068633945 -0.052324421558
5.400000000000000 -0.152891757303 -0.096862457679 -0.385583524566 0.9047233071315 -0.385583524566 0.9047233071315 -0.175763911513 -0.043198704340
5.450000000000000 -0.153865360586 -0.089231861817 -0.345692947792 0.9213103909541 -0.345692947792 0.9213103909541 -0.174587453522 -0.034004197717
5.500000000000000 -0.154074583153 -0.081527867936 -0.304875796935 0.9362766510662 -0.304875796935 0.9362766510662 -0.172537229612 -0.024822769792
5.550000000000001 -0.153523609869 -0.073825427729 -0.263178018345 0.9495587230745 -0.263178018345 0.9495587230745 -0.169619628426 -0.015737010512
5.600000000000001 -0.152224805842 -0.066199211782 -0.220650535945 0.9610917558174 -0.220650535945 0.9610917558174 -0.165849747212 -6.829391585e-3
5.650000000000000 -0.150198942898 -0.058722747035 -0.177349801064 0.9708098771734 -0.177349801064 0.9708098771734 -0.161251664661 0.0018186351270
5.700000000000000 -0.147475325340 -0.051467467886 -0.133338264050 0.9786467653501 -0.133338264050 0.9786467653501 -0.155858608793 0.0101276324358
5.750000000000000 -0.144091819160 -0.044501699215 -0.088684771175 0.9845363052857 -0.088684771175 0.9845363052857 -0.149713023793 0.0180212485750
5.800000000000001 -0.140094767873 -0.037889578932 -0.043464870516 0.9884133195143 -0.043464870516 0.9884133195143 -0.142866517459 0.0254273557263
5.850000000000001 -0.135538778291 -0.031689931219 0.0022389882803 0.9902143592628 0.0022389882803 0.9902143592628 -0.135379671140 0.0322792443946
5.900000000000000 -0.130486360516 -0.025955105146 0.0483373735223 0.9898785379318 0.0483373735223 0.9898785379318 -0.127321695023 0.0385168577635
5.950000000000000 -0.125007408047 -0.020729796967 0.0947339204805 0.9873483856517 0.0947339204805 0.9873483856517 -0.118769913480 0.0440880462781
6.000000000000000 -0.119178506421 -0.016049877677 0.1413255163104 0.9825707005128 0.1413255163104 0.9825707005128 -0.109809067923 0.0489498190604
6.050000000000001 -0.113082061998 -0.011941250322 0.1880026225357 0.9754973695844 0.1880026225357 0.9754973695844 -0.100530428159 0.0530695655937
6.100000000000001 -0.106805246387 -8.418763807e-3 0.2346497311700 0.9660861312145 0.2346497311700 0.9660861312145 -0.091030707566 0.0564262186384
6.150000000000000 -0.100438756423 -5.485211368e-3 0.2811459442612 0.9543012495803 0.2811459442612 0.9543012495803 -0.081410782280 0.0590113277658
6.200000000000000 -0.094075394227 -3.130442352e-3 0.3273656598678 0.9401140732632 0.3273656598678 0.9401140732632 -0.071774219798 0.0608300123872
6.250000000000000 -0.087808476599 -1.330615394e-3 0.3731793404752 0.9235034519273 0.3731793404752 0.9235034519273 -0.062225627699 0.0619017638132
6.300000000000001 -0.081730087325 -4.761943326e-5 0.4184543329476 0.9044559890965 0.4184543329476 0.9044559890965 -0.052868838141 0.0622610677121
6.350000000000001 -0.075929189752 7.7131351610e-4 0.4630557026388 0.8829661146186 0.4630557026388 0.8829661146186 -0.043804948134 0.0619578212688
6.400000000000000 -0.070489619754 0.0011937832457 0.5068470385963 0.8590359676193 0.5068470385963 0.8590359676193 -0.035130238922 0.0610575231626
6.450000000000000 -0.065487980818 0.0013021670057 0.5496911822332 0.8326750895057 0.5496911822332 0.8326750895057 -0.026933999900 0.0596412188629
6.500000000000000 -0.060991463164 0.0011933227621 0.5914508287171 0.8038999366973 0.5914508287171 0.8038999366973 -0.019296282979 0.0578051882570
6.550000000000001 -0.057055607541 9.7804008810e-4 0.6319889488764 0.7727332340511 0.6319889488764 0.7727332340511 -0.012285612310 0.0556603667276
6.600000000000001 -0.053722031665 7.8023079201e-4 0.6711689798753 0.7392032021852 0.6711689798753 0.7392032021852 -5.956671649e-3 0.0533314938871
6.650000000000000 -0.051016133529 7.3585172510e-4 0.7088547353979 0.7033427049055 0.7088547353979 0.7033427049055 -3.479877508e-4 0.0509559856093
6.700000000000000 -0.048944781310 9.9155016977e-4 0.7449099907711 0.6651883765591 0.7449099907711 0.6651883765591 0.0045203765915 0.0486825241108
6.750000000000000 -0.047493995298 0.0017030172058 0.7791977055201 0.6247798033001 0.7791977055201 0.6247798033001 0.0086491111401 0.0466693570340
6.800000000000001 -0.046626623830 0.0030330259758 0.8115788555631 0.5821588469694 0.8115788555631 0.5821588469694 0.0120619238938 0.0450822892488
6.850000000000001 -0.046280014176 0.0051491194789 0.8419108600832 0.5373692155998 0.8419108600832 0.5373692155998 0.0148077814352 0.0440923400661
6.900000000000000 -0.046363682084 0.0082208962975 0.8700456047971 0.4904564005048 0.8700456047971 0.4904564005048 0.0169631201475 0.0438730236251
6.950000000000000 -0.046756992239 0.0124168227584 0.8958270849963 0.4414681163977 0.8958270849963 0.4414681163977 0.0186340177267 0.0445971916010
7.000000000000000 -0.047306878668 0.0179004772127 0.9190887199407 0.3904553975872 0.9190887199407 0.3904553975872 0.0199583000072 0.0464333558125
7.050000000000001 -0.047825661679 0.0248261079505 0.9396504270333 0.3374745190026 0.9396504270333 0.3374745190026 0.0211075335083 0.0495413852484
7.100000000000001 -0.048089059493 0.0333333634321 0.9573155922631 0.2825899235973 0.9573155922631 0.2825899235973 0.0222888164026 0.0540674500055
7.150000000000000 -0.047834551379 0.0435410362903 0.9718681355227 0.2258783440774 0.9718681355227 0.2258783440774 0.0237462268327 0.0601380676380
7.200000000000000 -0.046760327692 0.0555396574114 0.9830699482909 0.1674343013041 0.9830699482909 0.1674343013041 0.0257617149949 0.0678531014810
7.250000000000001 -0.044525162428 0.0693827925964 0.9906590785394 0.1073771357790 0.9906590785394 0.1073771357790 0.0286551326119 0.0772775742700
7.300000000000001 -0.040749664712 0.0850769444371 0.9943491529248 0.0458596707044 0.9943491529248 0.0458596707044 0.0327829811694 0.0884322055468
7.350000000000001 -0.035019501433 0.1025700621869 0.9938306542059 -0.016921499882 0.9938306542059 -0.016921499882 0.0385353338681 0.1012826728732
7.400000000000000 -0.026891320329 0.1217388312606 0.9887747997967 -0.080714274230 0.9887747997967 -0.080714274230 0.0463302581193 0.1157277521840
7.450000000000000 -0.015902216397 0.1423751703784 0.9788408717894 -0.145198286255 0.9788408717894 -0.145198286255 0.0566049587278 0.1315867292578
7.500000000000001 -1.583634166e-3 0.1641727219033 0.9636878913558 -0.209971906845 0.9636878913558 -0.209971906845 0.0698028139134 0.1485868050668
7.550000000000001 0.0165194732983 0.1867145790339 0.9429914561328 -0.274540225063 0.9429914561328 -0.274540225063 0.0863555403847 0.1663516424056
7.600000000000001 0.0388236735387 0.2094640243745 0.9164662982880 -0.338305744544 0.9164662982880 -0.338305744544 0.1066599673031 0.1843926941666
7.650000000000000 0.0656762539004 0.2317605871850 0.8838945991892 -0.400564045001 0.8838945991892 -0.400564045001 0.1310493940667 0.2021054496180
7.700000000000000 0.0973194397776 0.2528241339192 0.8451592572826 -0.460507052191 0.8451592572826 -0.460507052191 0.1597603084289 0.2187731161673
